Circuit: * C:\Users\Jean Louis Salvat\Desktop\dropbox\iut_courant\er1\docs\projet\2013\PT100\pt100-simu\INA126P_test.asc

Early termination of direct N-R iteration.
Direct Newton iteration failed to find .op point.  (Use ".option noopiter" to skip.)
Starting Gmin stepping
Gmin = 10
vernier = 0.5
vernier = 0.25
Gmin = 2.62144
vernier = 0.125
vernier = 0.0625
vernier = 0.0833333
Gmin = 2.37639
vernier = 0.0416667
vernier = 0.0208333
Gmin = 2.27978
vernier = 0.0277778
vernier = 0.0138889
vernier = 0.00694444
vernier = 0.00347222
Gmin = 2.23485
vernier = 0.00173611
vernier = 0.000868055
vernier = 0.000434028
Gmin = 2.23412
Gmin = 0
Gmin stepping succeeded in finding the operating point.

Semiconductor Device Operating Points:
                        --- Diodes ---
Name:   d:u1:2:p    d:u1:2:ln   d:u1:2:lp   d:u1:2:e    d:u1:2:c
Model:   u1:2:dx     u1:2:dx     u1:2:dx     u1:2:dx     u1:2:dx
Id:     -1.70e-11   -1.88e-12   -2.12e-12   -4.07e-12   -1.09e-11
Vd:     -1.70e+01   -1.88e+00   -2.12e+00   -4.07e+00   -1.09e+01
Req:     1.00e+12    1.00e+12    1.00e+12    1.00e+12    1.00e+12
CAP:     0.00e+00    0.00e+00    0.00e+00    0.00e+00    0.00e+00

Name:   d:u1:1:p    d:u1:1:ln   d:u1:1:lp   d:u1:1:e    d:u1:1:c
Model:   u1:1:dx     u1:1:dx     u1:1:dx     u1:1:dx     u1:1:dx
Id:     -1.70e-11   -2.25e-12   -1.75e-12   -1.02e-11   -4.82e-12
Vd:     -1.70e+01   -2.25e+00   -1.75e+00   -1.02e+01   -4.82e+00
Req:     1.00e+12    1.00e+12    1.00e+12    1.00e+12    1.00e+12
CAP:     0.00e+00    0.00e+00    0.00e+00    0.00e+00    0.00e+00

                        --- Bipolar Transistors ---
Name:    q:u1:2:2    q:u1:2:1    q:u1:1:2    q:u1:1:1
Model:    u1:2:qx     u1:2:qx     u1:1:qx     u1:1:qx
Ib:      -1.98e-08   -1.98e-08   -1.98e-08   -1.98e-08
Ic:      -2.97e-06   -2.97e-06   -2.97e-06   -2.97e-06
Vbe:     -5.70e-01   -5.70e-01   -5.70e-01   -5.70e-01
Vbc:      9.92e+00    9.92e+00    9.92e+00    9.92e+00
Vce:     -1.05e+01   -1.05e+01   -1.05e+01   -1.05e+01
BetaDC:   1.50e+02    1.50e+02    1.50e+02    1.50e+02
Gm:       1.15e-04    1.15e-04    1.15e-04    1.15e-04
Rpi:      1.31e+06    1.31e+06    1.31e+06    1.31e+06
Rx:       0.00e+00    0.00e+00    0.00e+00    0.00e+00
Ro:         NaN         NaN         NaN         NaN
Cbe:      0.00e+00    0.00e+00    0.00e+00    0.00e+00
Cbc:      0.00e+00    0.00e+00    0.00e+00    0.00e+00
Cjs:      0.00e+00    0.00e+00    0.00e+00    0.00e+00
BetaAC:   1.50e+02    1.50e+02    1.50e+02    1.50e+02
Cbx:      0.00e+00    0.00e+00    0.00e+00    0.00e+00
Ft:       0.00e+00    0.00e+00    0.00e+00    0.00e+00



Date: Sun Feb 10 20:06:35 2013
Total elapsed time: 1.957 seconds.

tnom = 27
temp = 27
method = trap
totiter = 1428
traniter = 0
tranpoints = 0
accept = 0
rejected = 0
matrix size = 58
fillins = 239
solver = Normal
Matrix Compiler1: 13,8 Ko object code size
Matrix Compiler2: 9,07 Ko object code size  1.5/1.6/[0.8]


