Circuit: * C:\Users\Jean Louis Salvat\Desktop\dropbox\iut_courant\er1\docs\projet\2013\PT100\pt100-simu\PT100_test2.asc

Direct Newton iteration failed to find .op point.  (Use ".option noopiter" to skip.)
Starting Gmin stepping
Gmin = 10
Gmin = 1.07374
Gmin = 0.115292
Gmin = 0.0123794
Gmin = 0.00132923
Gmin = 0.000142725
Gmin = 1.5325e-005
Gmin = 1.6455e-006
Gmin = 1.76685e-007
Gmin = 1.89714e-008
Gmin = 2.03704e-009
Gmin = 2.18725e-010
Gmin = 2.34854e-011
Gmin = 2.52173e-012
Gmin = 2.70769e-013
Gmin = 0
Gmin stepping succeeded in finding the operating point.

Semiconductor Device Operating Points:
                        --- Diodes ---
Name:    d:u3:3      d:u3:4      d:u3:6      d:u3:5      d:u3:2
Model:    u3:dx       u3:dx       u3:dx       u3:dx       u3:dx
Id:     -2.71e-13   -2.71e-13    3.63e-05    3.75e-05    6.12e-06
Vd:     -2.70e-01   -2.70e-01    6.29e-01    6.30e-01    5.83e-01
Req:     1.00e+12    1.00e+12    7.12e+02    6.89e+02    4.22e+03
CAP:     0.00e+00    0.00e+00    0.00e+00    0.00e+00    0.00e+00

Name:    d:u3:1
Model:    u3:dx
Id:     -1.03e-11
Vd:     -1.03e+01
Req:     1.00e+12
CAP:     0.00e+00

                        --- Bipolar Transistors ---
Name:     q:u3:2      q:u3:1
Model:     u3:qx       u3:qx
Ib:      -5.03e-08   -3.96e-08
Ic:      -5.59e-05   -4.40e-05
Vbe:     -7.00e-01   -6.93e-01
Vbc:      1.24e+00    1.25e+00
Vce:     -1.94e+00   -1.95e+00
BetaDC:   1.11e+03    1.11e+03
Gm:       2.16e-03    1.70e-03
Rpi:      5.14e+05    6.53e+05
Rx:       0.00e+00    0.00e+00
Ro:       1.85e+35    2.99e+35
Cbe:      0.00e+00    0.00e+00
Cbc:      0.00e+00    0.00e+00
Cjs:      0.00e+00    0.00e+00
BetaAC:   1.11e+03    1.11e+03
Cbx:      0.00e+00    0.00e+00
Ft:       0.00e+00    0.00e+00



Date: Sun Feb 10 10:46:11 2013
Total elapsed time: 0.343 seconds.

tnom = 27
temp = 27
method = trap
totiter = 626
traniter = 0
tranpoints = 0
accept = 0
rejected = 0
matrix size = 39
fillins = 47
solver = Normal
Matrix Compiler1: 3,92 Ko object code size
Matrix Compiler2: 3,85 Ko object code size  0.5/1.0/[0.5]


