Circuit: * C:\Users\Jean Louis Salvat\Desktop\dropbox\iut_courant\er1\docs\projet\2013\PT100\pt100-simu\PT100_test1.asc

Direct Newton iteration failed to find .op point.  (Use ".option noopiter" to skip.)
Starting Gmin stepping
Gmin = 10
Gmin = 1.07374
Gmin = 0.115292
Gmin = 0.0123794
Gmin = 0.00132923
Gmin = 0.000142725
Gmin = 1.5325e-005
Gmin = 1.6455e-006
Gmin = 1.76685e-007
Gmin = 1.89714e-008
Gmin = 2.03704e-009
Gmin = 2.18725e-010
Gmin = 2.34854e-011
Gmin = 2.52173e-012
Gmin = 2.70769e-013
Gmin = 0
Gmin stepping succeeded in finding the operating point.

Semiconductor Device Operating Points:
                        --- Diodes ---
Name:    d:u2:3      d:u2:4      d:u2:6      d:u2:5      d:u2:2
Model:    u2:dx       u2:dx       u2:dx       u2:dx       u2:dx
Id:     -2.72e-13   -2.70e-13    3.50e-05    3.90e-05    4.37e-14
Vd:     -2.71e-01   -2.69e-01    6.28e-01    6.31e-01    4.00e-02
Req:     1.00e+12    1.00e+12    7.39e+02    6.63e+02    8.46e+11
CAP:     0.00e+00    0.00e+00    0.00e+00    0.00e+00    0.00e+00

Name:    d:u2:1
Model:    u2:dx
Id:     -9.78e-12
Vd:     -9.78e+00
Req:     1.00e+12
CAP:     0.00e+00

                        --- Bipolar Transistors ---
Name:       q1        q:u2:2      q:u2:1
Model:    2n2907       u2:qx       u2:qx
Ib:      -4.01e-06   -4.50e-08   -4.49e-08
Ic:      -1.00e-03   -5.00e-05   -4.99e-05
Vbe:     -6.55e-01   -6.97e-01   -6.97e-01
Vbc:      4.96e-01    1.23e+00    1.23e+00
Vce:     -1.15e+00   -1.92e+00   -1.92e+00
BetaDC:   2.50e+02    1.11e+03    1.11e+03
Gm:       3.86e-02    1.93e-03    1.93e-03
Rpi:      6.45e+03    5.75e+05    5.76e+05
Rx:       1.00e+01    0.00e+00    0.00e+00
Ro:       1.20e+05    9.93e+34    9.97e+34
Cbe:      6.25e-11    0.00e+00    0.00e+00
Cbc:      6.77e-12    0.00e+00    0.00e+00
Cjs:      0.00e+00    0.00e+00    0.00e+00
BetaAC:   2.49e+02    1.11e+03    1.11e+03
Cbx:      0.00e+00    0.00e+00    0.00e+00
Ft:       8.88e+07    0.00e+00    0.00e+00



Date: Sun Feb 10 10:02:37 2013
Total elapsed time: 0.346 seconds.

tnom = 27
temp = 27
method = trap
totiter = 633
traniter = 0
tranpoints = 0
accept = 0
rejected = 0
matrix size = 41
fillins = 55
solver = Normal
Matrix Compiler1: 4,43 Ko object code size
Matrix Compiler2: off  [0.6]/0.7/1.2


