Circuit: * C:\Users\Jean Louis Salvat\Desktop\LTspiceIV\examples\addon\sensors\PT100_test1.asc

WARNING: Less than two connections to node 12V.  This node is used by V2.
Ignoring empty pin current: Ix(u2:3)
Ignoring empty pin current: Ix(u2:4)
Direct Newton iteration for .op point succeeded.
Semiconductor Device Operating Points:
                        --- Bipolar Transistors ---
Name:       q1
Model:    2n2907
Ib:      -4.01e-06
Ic:      -1.00e-03
Vbe:     -6.55e-01
Vbc:      4.94e-01
Vce:     -1.15e+00
BetaDC:   2.50e+02
Gm:       3.87e-02
Rpi:      6.45e+03
Rx:       1.00e+01
Ro:       1.20e+05
Cbe:      6.25e-11
Cbc:      6.77e-12
Cjs:      0.00e+00
BetaAC:   2.49e+02
Cbx:      0.00e+00
Ft:       8.89e+07



Date: Sat Feb 16 20:33:07 2013
Total elapsed time: 0.418 seconds.

tnom = 27
temp = 27
method = trap
totiter = 7
traniter = 0
tranpoints = 0
accept = 0
rejected = 0
matrix size = 11
fillins = 6
solver = Normal
Matrix Compiler1: 878 octet(s) object code size
Matrix Compiler2: 871 octet(s) object code size

